v1	V(n001)	V(n002)	I(D1)	I(R1)	I(V1)
0.000000000000000e+000	0.000000e+000	0.000000e+000	0.000000e+000	0.000000e+000	0.000000e+000
1.000000000000000e-002	1.000000e-002	6.222022e-007	6.222022e-010	6.222022e-010	-6.222022e-010
2.000000000000000e-002	2.000000e-002	1.398011e-006	1.398011e-009	1.398011e-009	-1.398011e-009
3.000000000000000e-002	3.000000e-002	2.365343e-006	2.365343e-009	2.365343e-009	-2.365343e-009
4.000000000000000e-002	4.000000e-002	3.571466e-006	3.571466e-009	3.571466e-009	-3.571466e-009
5.000000000000000e-002	5.000000e-002	5.075311e-006	5.075311e-009	5.075311e-009	-5.075311e-009
6.000000000000001e-002	6.000000e-002	6.950342e-006	6.950342e-009	6.950342e-009	-6.950342e-009
7.000000000000001e-002	7.000000e-002	9.288134e-006	9.288133e-009	9.288133e-009	-9.288133e-009
8.000000000000000e-002	8.000000e-002	1.220283e-005	1.220283e-008	1.220283e-008	-1.220283e-008
9.000000000000000e-002	9.000000e-002	1.583669e-005	1.583669e-008	1.583669e-008	-1.583669e-008
9.999999999999999e-002	1.000000e-001	2.036700e-005	2.036700e-008	2.036700e-008	-2.036700e-008
1.100000000000000e-001	1.100000e-001	2.601466e-005	2.601466e-008	2.601466e-008	-2.601466e-008
1.200000000000000e-001	1.200000e-001	3.305485e-005	3.305485e-008	3.305485e-008	-3.305485e-008
1.300000000000000e-001	1.300000e-001	4.183034e-005	4.183034e-008	4.183034e-008	-4.183034e-008
1.400000000000000e-001	1.400000e-001	5.276789e-005	5.276789e-008	5.276789e-008	-5.276789e-008
1.500000000000000e-001	1.500000e-001	6.639874e-005	6.639874e-008	6.639874e-008	-6.639874e-008
1.600000000000000e-001	1.600000e-001	8.338382e-005	8.338382e-008	8.338382e-008	-8.338382e-008
1.700000000000000e-001	1.700000e-001	1.045450e-004	1.045450e-007	1.045450e-007	-1.045450e-007
1.800000000000000e-001	1.800000e-001	1.309037e-004	1.309037e-007	1.309037e-007	-1.309037e-007
1.900000000000000e-001	1.900000e-001	1.637279e-004	1.637279e-007	1.637279e-007	-1.637279e-007
2.000000000000000e-001	2.000000e-001	2.045907e-004	2.045907e-007	2.045907e-007	-2.045907e-007
2.100000000000001e-001	2.100000e-001	2.554404e-004	2.554404e-007	2.554404e-007	-2.554404e-007
2.200000000000001e-001	2.200000e-001	3.186867e-004	3.186867e-007	3.186867e-007	-3.186867e-007
2.300000000000001e-001	2.300000e-001	3.973040e-004	3.973040e-007	3.973040e-007	-3.973040e-007
2.400000000000001e-001	2.400000e-001	4.949542e-004	4.949542e-007	4.949542e-007	-4.949542e-007
2.500000000000001e-001	2.500000e-001	6.161323e-004	6.161325e-007	6.161324e-007	-6.161325e-007
2.600000000000001e-001	2.600000e-001	7.663351e-004	7.663352e-007	7.663350e-007	-7.663352e-007
2.700000000000001e-001	2.700000e-001	9.522522e-004	9.522524e-007	9.522522e-007	-9.522524e-007
2.800000000000001e-001	2.800000e-001	1.181980e-003	1.181980e-006	1.181980e-006	-1.181980e-006
2.900000000000001e-001	2.900000e-001	1.465245e-003	1.465246e-006	1.465245e-006	-1.465246e-006
3.000000000000001e-001	3.000000e-001	1.813639e-003	1.813641e-006	1.813639e-006	-1.813641e-006
3.100000000000001e-001	3.100000e-001	2.240822e-003	2.240825e-006	2.240822e-006	-2.240825e-006
3.200000000000001e-001	3.200000e-001	2.762695e-003	2.762701e-006	2.762695e-006	-2.762701e-006
3.300000000000001e-001	3.300000e-001	3.397485e-003	3.397495e-006	3.397485e-006	-3.397495e-006
3.400000000000001e-001	3.400000e-001	4.165699e-003	4.165715e-006	4.165699e-006	-4.165715e-006
3.500000000000001e-001	3.500000e-001	5.089914e-003	5.089942e-006	5.089915e-006	-5.089942e-006
3.600000000000002e-001	3.600000e-001	6.194346e-003	6.194389e-006	6.194346e-006	-6.194389e-006
3.700000000000002e-001	3.700000e-001	7.504177e-003	7.504244e-006	7.504177e-006	-7.504244e-006
3.800000000000002e-001	3.800000e-001	9.044670e-003	9.044768e-006	9.044670e-006	-9.044768e-006
3.900000000000002e-001	3.900000e-001	1.084009e-002	1.084023e-005	1.084009e-005	-1.084023e-005
4.000000000000002e-001	4.000000e-001	1.291257e-002	1.291275e-005	1.291257e-005	-1.291275e-005
4.100000000000002e-001	4.100000e-001	1.528098e-002	1.528123e-005	1.528098e-005	-1.528123e-005
4.200000000000002e-001	4.200000e-001	1.796009e-002	1.796040e-005	1.796009e-005	-1.796040e-005
4.300000000000002e-001	4.300000e-001	2.095989e-002	2.096025e-005	2.095989e-005	-2.096025e-005
4.400000000000002e-001	4.400000e-001	2.428538e-002	2.428579e-005	2.428538e-005	-2.428579e-005
4.500000000000002e-001	4.500000e-001	2.793672e-002	2.793716e-005	2.793671e-005	-2.793716e-005
4.600000000000002e-001	4.600000e-001	3.190961e-002	3.191009e-005	3.190961e-005	-3.191009e-005
4.700000000000003e-001	4.700000e-001	3.619602e-002	3.619650e-005	3.619602e-005	-3.619650e-005
4.800000000000003e-001	4.800000e-001	4.078489e-002	4.078537e-005	4.078489e-005	-4.078537e-005
4.900000000000003e-001	4.900000e-001	4.566296e-002	4.566343e-005	4.566296e-005	-4.566343e-005
5.000000000000002e-001	5.000000e-001	5.081552e-002	5.081596e-005	5.081551e-005	-5.081596e-005
5.100000000000002e-001	5.100000e-001	5.622702e-002	5.622744e-005	5.622702e-005	-5.622744e-005
5.200000000000002e-001	5.200000e-001	6.188167e-002	6.188205e-005	6.188167e-005	-6.188205e-005
5.300000000000003e-001	5.300000e-001	6.776377e-002	6.776411e-005	6.776377e-005	-6.776411e-005
5.400000000000003e-001	5.400000e-001	7.385807e-002	7.385838e-005	7.385806e-005	-7.385838e-005
5.500000000000003e-001	5.500000e-001	8.014996e-002	8.015023e-005	8.014996e-005	-8.015023e-005
5.600000000000003e-001	5.600000e-001	8.662561e-002	8.662586e-005	8.662562e-005	-8.662586e-005
5.700000000000003e-001	5.700000e-001	9.327205e-002	9.327226e-005	9.327204e-005	-9.327226e-005
5.800000000000003e-001	5.800000e-001	1.000772e-001	1.000773e-004	1.000772e-004	-1.000773e-004
5.900000000000003e-001	5.900000e-001	1.070297e-001	1.070299e-004	1.070297e-004	-1.070299e-004
6.000000000000003e-001	6.000000e-001	1.141193e-001	1.141195e-004	1.141193e-004	-1.141195e-004
6.100000000000003e-001	6.100000e-001	1.213365e-001	1.213366e-004	1.213365e-004	-1.213366e-004
6.200000000000003e-001	6.200000e-001	1.286723e-001	1.286724e-004	1.286723e-004	-1.286724e-004
6.300000000000003e-001	6.300000e-001	1.361187e-001	1.361188e-004	1.361187e-004	-1.361188e-004
6.400000000000004e-001	6.400000e-001	1.436684e-001	1.436685e-004	1.436684e-004	-1.436685e-004
6.500000000000004e-001	6.500000e-001	1.513144e-001	1.513145e-004	1.513144e-004	-1.513145e-004
6.600000000000004e-001	6.600000e-001	1.590505e-001	1.590506e-004	1.590505e-004	-1.590506e-004
6.700000000000004e-001	6.700000e-001	1.668710e-001	1.668711e-004	1.668710e-004	-1.668711e-004
6.800000000000004e-001	6.800000e-001	1.747706e-001	1.747707e-004	1.747706e-004	-1.747707e-004
6.900000000000004e-001	6.900000e-001	1.827444e-001	1.827445e-004	1.827444e-004	-1.827445e-004
7.000000000000004e-001	7.000000e-001	1.907879e-001	1.907880e-004	1.907879e-004	-1.907880e-004
7.100000000000004e-001	7.100000e-001	1.988971e-001	1.988971e-004	1.988971e-004	-1.988971e-004
7.200000000000004e-001	7.200000e-001	2.070681e-001	2.070681e-004	2.070681e-004	-2.070681e-004
7.300000000000004e-001	7.300000e-001	2.152974e-001	2.152974e-004	2.152974e-004	-2.152974e-004
7.400000000000004e-001	7.400000e-001	2.235817e-001	2.235818e-004	2.235818e-004	-2.235818e-004
7.500000000000004e-001	7.500000e-001	2.319182e-001	2.319182e-004	2.319182e-004	-2.319182e-004
7.600000000000005e-001	7.600000e-001	2.403038e-001	2.403039e-004	2.403038e-004	-2.403039e-004
7.700000000000005e-001	7.700000e-001	2.487362e-001	2.487362e-004	2.487362e-004	-2.487362e-004
7.800000000000005e-001	7.800000e-001	2.572128e-001	2.572128e-004	2.572128e-004	-2.572128e-004
7.900000000000005e-001	7.900000e-001	2.657315e-001	2.657315e-004	2.657315e-004	-2.657315e-004
8.000000000000005e-001	8.000000e-001	2.742901e-001	2.742902e-004	2.742902e-004	-2.742902e-004
8.100000000000005e-001	8.100000e-001	2.828868e-001	2.828868e-004	2.828868e-004	-2.828868e-004
8.200000000000005e-001	8.200000e-001	2.915197e-001	2.915197e-004	2.915197e-004	-2.915197e-004
8.300000000000005e-001	8.300000e-001	3.001871e-001	3.001872e-004	3.001872e-004	-3.001872e-004
8.400000000000005e-001	8.400000e-001	3.088875e-001	3.088875e-004	3.088875e-004	-3.088875e-004
8.500000000000005e-001	8.500000e-001	3.176193e-001	3.176194e-004	3.176193e-004	-3.176194e-004
8.600000000000005e-001	8.600000e-001	3.263812e-001	3.263812e-004	3.263812e-004	-3.263812e-004
8.700000000000006e-001	8.700000e-001	3.351719e-001	3.351719e-004	3.351719e-004	-3.351719e-004
8.800000000000006e-001	8.800000e-001	3.439901e-001	3.439901e-004	3.439901e-004	-3.439901e-004
8.900000000000006e-001	8.900000e-001	3.528346e-001	3.528346e-004	3.528346e-004	-3.528346e-004
9.000000000000006e-001	9.000000e-001	3.617045e-001	3.617045e-004	3.617045e-004	-3.617045e-004
9.100000000000006e-001	9.100000e-001	3.705987e-001	3.705987e-004	3.705987e-004	-3.705987e-004
9.200000000000006e-001	9.200000e-001	3.795161e-001	3.795161e-004	3.795161e-004	-3.795161e-004
9.300000000000006e-001	9.300000e-001	3.884560e-001	3.884560e-004	3.884560e-004	-3.884560e-004
9.400000000000006e-001	9.400000e-001	3.974174e-001	3.974174e-004	3.974174e-004	-3.974174e-004
9.500000000000006e-001	9.500000e-001	4.063995e-001	4.063995e-004	4.063995e-004	-4.063995e-004
9.600000000000006e-001	9.600000e-001	4.154016e-001	4.154016e-004	4.154016e-004	-4.154016e-004
9.700000000000006e-001	9.700000e-001	4.244229e-001	4.244229e-004	4.244229e-004	-4.244229e-004
9.800000000000007e-001	9.800000e-001	4.334627e-001	4.334627e-004	4.334627e-004	-4.334627e-004
9.900000000000007e-001	9.900000e-001	4.425204e-001	4.425204e-004	4.425204e-004	-4.425204e-004
1.000000000000001e+000	1.000000e+000	4.515954e-001	4.515954e-004	4.515954e-004	-4.515954e-004
1.010000000000001e+000	1.010000e+000	4.606870e-001	4.606870e-004	4.606870e-004	-4.606870e-004
1.020000000000001e+000	1.020000e+000	4.697947e-001	4.697947e-004	4.697947e-004	-4.697947e-004
1.030000000000001e+000	1.030000e+000	4.789179e-001	4.789179e-004	4.789179e-004	-4.789179e-004
1.040000000000001e+000	1.040000e+000	4.880562e-001	4.880562e-004	4.880562e-004	-4.880562e-004
1.050000000000001e+000	1.050000e+000	4.972090e-001	4.972091e-004	4.972091e-004	-4.972091e-004
1.060000000000001e+000	1.060000e+000	5.063760e-001	5.063760e-004	5.063760e-004	-5.063760e-004
1.070000000000001e+000	1.070000e+000	5.155566e-001	5.155565e-004	5.155565e-004	-5.155565e-004
1.080000000000001e+000	1.080000e+000	5.247504e-001	5.247504e-004	5.247504e-004	-5.247504e-004
1.090000000000001e+000	1.090000e+000	5.339570e-001	5.339570e-004	5.339570e-004	-5.339570e-004
1.100000000000001e+000	1.100000e+000	5.431761e-001	5.431760e-004	5.431760e-004	-5.431760e-004
1.110000000000001e+000	1.110000e+000	5.524071e-001	5.524072e-004	5.524072e-004	-5.524072e-004
1.120000000000001e+000	1.120000e+000	5.616500e-001	5.616500e-004	5.616500e-004	-5.616500e-004
1.130000000000001e+000	1.130000e+000	5.709041e-001	5.709042e-004	5.709042e-004	-5.709042e-004
1.140000000000001e+000	1.140000e+000	5.801694e-001	5.801694e-004	5.801694e-004	-5.801694e-004
1.150000000000001e+000	1.150000e+000	5.894453e-001	5.894453e-004	5.894453e-004	-5.894453e-004
1.160000000000001e+000	1.160000e+000	5.987317e-001	5.987317e-004	5.987317e-004	-5.987317e-004
1.170000000000001e+000	1.170000e+000	6.080282e-001	6.080282e-004	6.080282e-004	-6.080282e-004
1.180000000000001e+000	1.180000e+000	6.173346e-001	6.173346e-004	6.173346e-004	-6.173346e-004
1.190000000000001e+000	1.190000e+000	6.266506e-001	6.266506e-004	6.266506e-004	-6.266506e-004
1.200000000000001e+000	1.200000e+000	6.359759e-001	6.359759e-004	6.359759e-004	-6.359759e-004
1.210000000000001e+000	1.210000e+000	6.453103e-001	6.453103e-004	6.453103e-004	-6.453103e-004
1.220000000000001e+000	1.220000e+000	6.546536e-001	6.546536e-004	6.546536e-004	-6.546536e-004
1.230000000000001e+000	1.230000e+000	6.640055e-001	6.640055e-004	6.640055e-004	-6.640055e-004
1.240000000000001e+000	1.240000e+000	6.733659e-001	6.733659e-004	6.733659e-004	-6.733659e-004
1.250000000000001e+000	1.250000e+000	6.827344e-001	6.827344e-004	6.827344e-004	-6.827344e-004
1.260000000000001e+000	1.260000e+000	6.921110e-001	6.921110e-004	6.921110e-004	-6.921110e-004
1.270000000000001e+000	1.270000e+000	7.014953e-001	7.014954e-004	7.014954e-004	-7.014954e-004
1.280000000000001e+000	1.280000e+000	7.108874e-001	7.108874e-004	7.108874e-004	-7.108874e-004
1.290000000000001e+000	1.290000e+000	7.202868e-001	7.202868e-004	7.202868e-004	-7.202868e-004
1.300000000000001e+000	1.300000e+000	7.296935e-001	7.296934e-004	7.296934e-004	-7.296934e-004
1.310000000000001e+000	1.310000e+000	7.391073e-001	7.391073e-004	7.391073e-004	-7.391073e-004
1.320000000000001e+000	1.320000e+000	7.485279e-001	7.485279e-004	7.485279e-004	-7.485279e-004
1.330000000000001e+000	1.330000e+000	7.579554e-001	7.579554e-004	7.579554e-004	-7.579554e-004
1.340000000000001e+000	1.340000e+000	7.673895e-001	7.673895e-004	7.673895e-004	-7.673895e-004
1.350000000000001e+000	1.350000e+000	7.768301e-001	7.768301e-004	7.768301e-004	-7.768301e-004
1.360000000000001e+000	1.360000e+000	7.862770e-001	7.862769e-004	7.862769e-004	-7.862769e-004
1.370000000000001e+000	1.370000e+000	7.957301e-001	7.957300e-004	7.957300e-004	-7.957300e-004
1.380000000000001e+000	1.380000e+000	8.051892e-001	8.051892e-004	8.051892e-004	-8.051892e-004
1.390000000000001e+000	1.390000e+000	8.146542e-001	8.146542e-004	8.146542e-004	-8.146542e-004
1.400000000000001e+000	1.400000e+000	8.241251e-001	8.241251e-004	8.241251e-004	-8.241251e-004
1.410000000000001e+000	1.410000e+000	8.336016e-001	8.336016e-004	8.336016e-004	-8.336016e-004
1.420000000000001e+000	1.420000e+000	8.430836e-001	8.430837e-004	8.430837e-004	-8.430837e-004
1.430000000000001e+000	1.430000e+000	8.525711e-001	8.525712e-004	8.525712e-004	-8.525712e-004
1.440000000000001e+000	1.440000e+000	8.620640e-001	8.620640e-004	8.620640e-004	-8.620640e-004
1.450000000000001e+000	1.450000e+000	8.715621e-001	8.715620e-004	8.715620e-004	-8.715620e-004
1.460000000000001e+000	1.460000e+000	8.810652e-001	8.810652e-004	8.810652e-004	-8.810652e-004
1.470000000000001e+000	1.470000e+000	8.905734e-001	8.905734e-004	8.905734e-004	-8.905734e-004
1.480000000000001e+000	1.480000e+000	9.000865e-001	9.000865e-004	9.000865e-004	-9.000865e-004
1.490000000000001e+000	1.490000e+000	9.096044e-001	9.096045e-004	9.096045e-004	-9.096045e-004
1.500000000000000e+000	1.500000e+000	9.191271e-001	9.191271e-004	9.191271e-004	-9.191271e-004
